! AWR Design Environment (17415) Wed Nov  6 14:33:17 2024
! Document = 'MicrostripCoaxModel'
! nPorts: 1, nXvals: 201

# MHz S DB R 50
!Freq DBS11 AngS11 
10 -0.0105523774185528 -4.25666468883291 
14.95 -0.0144811181009548 -6.36314437408263 
19.9 -0.0184054245150941 -8.46862319163649 
24.85 -0.0223226713903332 -10.5727852694235 
29.8 -0.0262302414592469 -12.6753138663393 
34.75 -0.030125494292769 -14.7758937152913 
39.7 -0.0340057746075231 -16.8742122242077 
44.65 -0.0378684264353368 -18.9699602988836 
49.6 -0.0417108071905689 -21.0628330042408 
54.55 -0.045530300525326 -23.1525301416903 
59.5 -0.0493243278861258 -25.2387567744519 
64.45 -0.0530903588933129 -27.3212237135329 
69.4 -0.0568259206815067 -29.3996479721692 
74.35 -0.0605286063155639 -31.4737531903467 
79.3 -0.0641960823689408 -33.5432700316071 
84.25 -0.0678260957293818 -35.6079365522971 
89.2 -0.0714164796805329 -37.6674985430862 
94.15 -0.0749651592967049 -39.7217098433004 
99.1 -0.0784701561811376 -41.7703326272862 
104.05 -0.0819295925728534 -43.8131376632037 
109 -0.0853416948450049 -45.8499045440016 
113.95 -0.0887047964160467 -47.8804218907565 
118.9 -0.0920173400947715 -49.904487528571 
123.85 -0.0952778798806547 -51.9219086352243 
128.8 -0.0984850822412714 -53.9325018632551 
133.75 -0.101637726889924 -55.9360934356747 
138.7 -0.104734707087092 -57.9325192162525 
143.65 -0.107775029490659 -59.9216247549227 
148.6 -0.110757813580708 -61.9032653091646 
153.55 -0.113682290685395 -63.8773058422781 
158.5 -0.116547802634975 -65.8436209996298 
163.45 -0.119353800072154 -67.8020950636111 
168.4 -0.122099840446205 -69.752621888735 
173.35 -0.124785585719401 -71.695104817765 
178.3 -0.127410799813715 -73.6294565801299 
183.25 -0.12997534582561 -75.5555991737519 
188.2 -0.13247918303625 -77.4734637315917 
193.15 -0.134922363744119 -79.3829903739371 
198.1 -0.137305029945977 -81.2841280478263 
203.05 -0.139627409891414 -83.1768343546577 
208 -0.141889814535266 -85.0610753672386 
212.95 -0.144092633911037 -86.9368254373922 
217.9 -0.146236333447205 -88.8040669953084 
222.85 -0.148321450247375 -90.6627903416205 
227.8 -0.150348589353417 -92.5129934334683 
232.75 -0.152318420010108 -94.3546816653192 
237.7 -0.154231671947701 -96.1878676457753 
242.65 -0.156089131698112 -98.0125709711219 
247.6 -0.157891638958692 -99.8288179966223 
252.55 -0.159640083016397 -101.636641606329 
257.5 -0.161335399243743 -103.43608098224 
262.45 -0.162978565676758 -105.227181373552 
267.4 -0.164570599683912 -107.009993866655 
272.35 -0.166112554733583 -108.784575156592 
277.3 -0.167605517267031 -110.55098732047 
282.25 -0.169050603681941 -112.309297593486 
287.2 -0.170448957431578 -114.059578147956 
292.15 -0.171801746242665 -115.80190587588 
297.1 -0.173110159454989 -117.536362175398 
302.05 -0.174375405484385 -119.263032741531 
307 -0.175598709410325 -120.982007361494 
311.95 -0.176781310688389 -122.693379714911 
316.9 -0.177924460987509 -124.397247179103 
321.85 -0.179029422151014 -126.093710639744 
326.8 -0.180097464280253 -127.782874306982 
331.75 -0.181129863939024 -129.464845537194 
336.7 -0.182127902476484 -131.139734660503 
341.65 -0.183092864466131 -132.807654814115 
346.6 -0.184026036257927 -134.468721781534 
351.55 -0.184928704640426 -136.123053837708 
356.5 -0.185802155609675 -137.770771600094 
361.45 -0.186647673241275 -139.41199788564 
366.4 -0.187466538661966 -141.046857573662 
371.35 -0.188260029117037 -142.675477474557 
376.3 -0.189029417129634 -144.29798620431 
381.25 -0.189775969748182 -145.914514064691 
386.2 -0.190500947877838 -147.525192929086 
391.15 -0.191205605692212 -149.13015613385 
396.1 -0.191891190121408 -150.729538375063 
401.05 -0.192558940412409 -152.323475610599 
406 -0.193210087758131 -153.91210496735 
410.95 -0.19384585499128 -155.495564653517 
415.9 -0.194467456339321 -157.073993875786 
420.85 -0.195076097237014 -158.647532761293 
425.8 -0.195672974192914 -160.216322284198 
430.75 -0.196259274706447 -161.780504196748 
435.7 -0.196836177232231 -163.340220964664 
440.65 -0.197404851188408 -164.895615706712 
445.6 -0.197966457005851 -166.446832138301 
450.55 -0.198522146215253 -167.994014518957 
455.5 -0.199073061569207 -169.537307603524 
460.45 -0.19962033719639 -171.076856596939 
465.4 -0.200165098785288 -172.612807112425 
470.35 -0.200708463794725 -174.145305132968 
475.3 -0.201251541688796 -175.674496975904 
480.25 -0.201795434193801 -177.200529260498 
485.2 -0.202341235574784 -178.723548878344 
490.15 -0.202890032929607 179.756297033543 
495.1 -0.203442906498299 178.238861117092 
500.05 -0.204000929985695 176.723995815126 
505 -0.204565170895372 175.211553391063 
509.95 -0.205136690872997 173.701385946465 
514.9 -0.205716546057216 172.193345436606 
519.85 -0.20630578743632 170.687283684169 
524.8 -0.206905461208977 169.183052391206 
529.75 -0.207516609147336 167.680503149504 
534.7 -0.208140268960863 166.179487449457 
539.65 -0.208777474659345 164.679856687595 
544.6 -0.209429256913454 163.181462172882 
549.55 -0.210096643411384 161.684155131902 
554.5 -0.210780659210004 160.187786713064 
559.45 -0.211482327079019 158.692207989931 
564.4 -0.212202667836724 157.197269963809 
569.35 -0.212942700675733 155.702823565704 
574.3 -0.213703443477315 154.208719657755 
579.25 -0.214485913112778 152.714809034287 
584.2 -0.215291125730388 151.220942422564 
589.15 -0.216120097026312 149.726970483391 
594.1 -0.216973842498046 148.23274381166 
599.05 -0.217853377678727 146.738112936963 
604 -0.218759718350717 145.242928324385 
608.95 -0.219693880736827 143.747040375608 
613.9 -0.220656881667488 142.250299430418 
618.85 -0.2216497387221 140.752555768755 
623.8 -0.222673470342843 139.253659613423 
628.75 -0.223729095918967 137.753461133565 
633.7 -0.224817635839875 136.251810449049 
638.65 -0.225940111514764 134.748557635862 
643.6 -0.227097545357048 133.243552732666 
648.55 -0.228290960731267 131.736645748622 
653.5 -0.22952138186042 130.227686672612 
658.45 -0.230789833691431 128.716525484009 
663.4 -0.232097341716432 127.20301216511 
668.35 -0.233444931747456 125.68699671537 
673.3 -0.234833629642048 124.168329167592 
678.25 -0.236264460977301 122.646859606185 
683.2 -0.237738450669546 121.122438187668 
688.15 -0.239256622537126 119.594915163537 
693.1 -0.240819998803367 118.064140905658 
698.05 -0.242429599536903 116.529965934342 
703 -0.244086442026457 114.992240949233 
707.95 -0.245791540087007 113.450816863204 
712.9 -0.247545903294354 111.905544839375 
717.85 -0.249350536144922 110.356276331456 
722.8 -0.251206437137659 108.802863127542 
727.75 -0.253114597774885 107.245157397564 
732.7 -0.255076001478786 105.683011744514 
737.65 -0.257091622420402 104.11627925967 
742.6 -0.259162424257902 102.544813581933 
747.55 -0.261289358780878 100.968468961495 
752.5 -0.263473364457548 99.3871003279727 
757.45 -0.265715364881801 97.8005633631931 
762.4 -0.26801626711699 96.2087145788002 
767.35 -0.27037695993362 94.6114113988459 
772.3 -0.272798311938198 93.0085122475239 
777.25 -0.275281169590529 91.3998766422213 
782.2 -0.277826355107195 89.7853652920374 
787.15 -0.28043466424896 88.1648402019185 
792.1 -0.283106863990245 86.5381647825632 
797.05 -0.285843690069063 84.9052039662369 
802 -0.288645844416322 83.2658243286101 
806.95 -0.291513992463512 81.6198942167685 
811.9 -0.294448760328579 79.9672838834791 
816.85 -0.297450731880114 78.3078656278256 
821.8 -0.300520445680581 76.6415139422775 
826.75 -0.303658391809943 74.968105666288 
831.7 -0.30686500857179 73.2875201464306 
836.65 -0.310140679084709 71.5996394031397 
841.6 -0.313485727762593 69.9043483040296 
846.55 -0.316900416688324 68.2015347438022 
851.5 -0.32038494188629 66.4910898306715 
856.45 -0.323939429500278 64.7729080792629 
861.4 -0.327563931884217 63.046887609852 
866.35 -0.331258423614461 61.3129303538353 
871.3 -0.335022797433615 59.5709422652448 
876.25 -0.338856860137015 57.8208335381003 
881.2 -0.34276032841437 56.0625188293563 
886.15 -0.346732824660605 54.2959174871374 
891.1 -0.350773872770988 52.5209537839544 
896.05 -0.354882893937635 50.7375571544753 
901 -0.359059202465492 48.9456624374566 
905.95 -0.363302001627704 47.1452101213362 
910.9 -0.367610379581678 45.3361465929453 
915.85 -0.371983305368834 43.5184243887518 
920.8 -0.37641962502224 41.6920024480035 
925.75 -0.380918057808149 39.8568463670318 
930.7 -0.385477192628626 38.0129286539963 
935.65 -0.390095484613859 36.1602289832069 
940.6 -0.394771251934015 34.2987344481886 
945.55 -0.399502672861635 32.4284398125048 
950.5 -0.404287783116547 30.5493477573846 
955.45 -0.409124473525892 28.6614691250924 
960.4 -0.414010488033021 26.7648231569182 
965.35 -0.418943422088643 24.8594377246757 
970.3 -0.423920721458633 22.9453495544651 
975.25 -0.428939681482023 21.0226044414855 
980.2 -0.433997446812936 19.0912574546079 
985.15 -0.439091011679025 17.1513731293882 
990.1 -0.444217220688325 15.2030256481849 
995.05 -0.449372770214652 13.2462990060157 
1000 -0.454554210390241 11.2812871607824 
