! AWR Design Environment (17415) Thu Nov  7 11:34:44 2024
! Document = 'Microstrip50ohmNoSkinEffect'
! nPorts: 2, nXvals: 201

# MHz S DB R 50
!Freq DBS11 AngS11 DBS21 AngS21 DBS12 AngS12 DBS22 AngS22 
10 -74.529372 178.39295 -0.0016310337 -1.6071326 -0.0016310337 -1.6071326 -74.529372 178.39295 
14.95 -71.038762 177.59754 -0.0024382822 -2.4026633 -0.0024382822 -2.4026633 -71.038762 177.59754 
19.9 -68.557296 176.80219 -0.003245456 -3.198194 -0.003245456 -3.198194 -68.557296 176.80219 
24.85 -66.631161 176.00688 -0.0040525552 -3.9937248 -0.0040525552 -3.9937248 -66.631161 176.00688 
29.8 -65.057253 175.21162 -0.0048595803 -4.7892556 -0.0048595803 -4.7892556 -65.057253 175.21162 
34.75 -63.72693 174.41641 -0.0056665313 -5.5847866 -0.0056665313 -5.5847866 -63.72693 174.41641 
39.7 -62.575224 173.62125 -0.0064734089 -6.3803176 -0.0064734089 -6.3803176 -62.575224 173.62125 
44.65 -61.560172 172.82614 -0.0072802134 -7.1758487 -0.0072802134 -7.1758487 -61.560172 172.82614 
49.6 -60.653094 172.03108 -0.0080869452 -7.97138 -0.0080869452 -7.97138 -60.653094 172.03108 
54.55 -59.83352 171.23607 -0.0088936051 -8.7669114 -0.0088936051 -8.7669114 -59.83352 171.23607 
59.5 -59.086323 170.44111 -0.0097001936 -9.5624429 -0.0097001936 -9.5624429 -59.086323 170.44111 
64.45 -58.400013 169.6462 -0.010506711 -10.357975 -0.010506711 -10.357975 -58.400013 169.6462 
69.4 -57.765653 168.85133 -0.011313159 -11.153506 -0.011313159 -11.153506 -57.765653 168.85133 
74.35 -57.176156 168.05652 -0.012119537 -11.949039 -0.012119537 -11.949039 -57.176156 168.05652 
79.3 -56.625808 167.26176 -0.012925847 -12.744571 -0.012925847 -12.744571 -56.625808 167.26176 
84.25 -56.109933 166.46705 -0.01373209 -13.540103 -0.01373209 -13.540103 -56.109933 166.46705 
89.2 -55.624658 165.67239 -0.014538266 -14.335636 -0.014538266 -14.335636 -55.624658 165.67239 
94.15 -55.166738 164.87777 -0.015344376 -15.131169 -0.015344376 -15.131169 -55.166738 164.87777 
99.1 -54.733427 164.08321 -0.016150421 -15.926702 -0.016150421 -15.926702 -54.733427 164.08321 
104.05 -54.32238 163.2887 -0.016956404 -16.722236 -0.016956404 -16.722236 -54.32238 163.2887 
109 -53.931582 162.49424 -0.017762323 -17.517769 -0.017762323 -17.517769 -53.931582 162.49424 
113.95 -53.559284 161.69983 -0.018568182 -18.313303 -0.018568182 -18.313303 -53.559284 161.69983 
118.9 -53.203961 160.90547 -0.01937398 -19.108838 -0.01937398 -19.108838 -53.203961 160.90547 
123.85 -52.864277 160.11117 -0.02017972 -19.904372 -0.02017972 -19.904372 -52.864277 160.11117 
128.8 -52.539051 159.31691 -0.020985403 -20.699907 -0.020985403 -20.699907 -52.539051 159.31691 
133.75 -52.227236 158.52271 -0.021791029 -21.495442 -0.021791029 -21.495442 -52.227236 158.52271 
138.7 -51.927901 157.72856 -0.022596601 -22.290978 -0.022596601 -22.290978 -51.927901 157.72856 
143.65 -51.640211 156.93446 -0.02340212 -23.086514 -0.02340212 -23.086514 -51.640211 156.93446 
148.6 -51.363418 156.14041 -0.024207587 -23.88205 -0.024207587 -23.88205 -51.363418 156.14041 
153.55 -51.096845 155.34641 -0.025013004 -24.677587 -0.025013004 -24.677587 -51.096845 155.34641 
158.5 -50.839884 154.55247 -0.025818372 -25.473124 -0.025818372 -25.473124 -50.839884 154.55247 
163.45 -50.59198 153.75858 -0.026623693 -26.268661 -0.026623693 -26.268661 -50.59198 153.75858 
168.4 -50.352627 152.96475 -0.027428969 -27.064199 -0.027428969 -27.064199 -50.352627 152.96475 
173.35 -50.121367 152.17097 -0.028234201 -27.859737 -0.028234201 -27.859737 -50.121367 152.17097 
178.3 -49.897777 151.37724 -0.029039391 -28.655276 -0.029039391 -28.655276 -49.897777 151.37724 
183.25 -49.681472 150.58356 -0.029844541 -29.450815 -0.029844541 -29.450815 -49.681472 150.58356 
188.2 -49.472096 149.78994 -0.030649652 -30.246354 -0.030649652 -30.246354 -49.472096 149.78994 
193.15 -49.269321 148.99638 -0.031454727 -31.041894 -0.031454727 -31.041894 -49.269321 148.99638 
198.1 -49.072846 148.20287 -0.032259767 -31.837434 -0.032259767 -31.837434 -49.072846 148.20287 
203.05 -48.882389 147.40941 -0.033064774 -32.632975 -0.033064774 -32.632975 -48.882389 147.40941 
208 -48.697693 146.61601 -0.033869749 -33.428516 -0.033869749 -33.428516 -48.697693 146.61601 
212.95 -48.518515 145.82267 -0.034674696 -34.224058 -0.034674696 -34.224058 -48.518515 145.82267 
217.9 -48.344632 145.02938 -0.035479615 -35.0196 -0.035479615 -35.0196 -48.344632 145.02938 
222.85 -48.175836 144.23615 -0.036284508 -35.815142 -0.036284508 -35.815142 -48.175836 144.23615 
227.8 -48.01193 143.44298 -0.037089378 -36.610685 -0.037089378 -36.610685 -48.01193 143.44298 
232.75 -47.852734 142.64987 -0.037894227 -37.406229 -0.037894227 -37.406229 -47.852734 142.64987 
237.7 -47.698076 141.85681 -0.038699056 -38.201773 -0.038699056 -38.201773 -47.698076 141.85681 
242.65 -47.547797 141.06381 -0.039503868 -38.997317 -0.039503868 -38.997317 -47.547797 141.06381 
247.6 -47.401747 140.27088 -0.040308664 -39.792862 -0.040308664 -39.792862 -47.401747 140.27088 
252.55 -47.259787 139.478 -0.041113447 -40.588408 -0.041113447 -40.588408 -47.259787 139.478 
257.5 -47.121782 138.68518 -0.041918218 -41.383954 -0.041918218 -41.383954 -47.121782 138.68518 
262.45 -46.98761 137.89242 -0.04272298 -42.1795 -0.04272298 -42.1795 -46.98761 137.89242 
267.4 -46.857152 137.09972 -0.043527735 -42.975047 -0.043527735 -42.975047 -46.857152 137.09972 
272.35 -46.730298 136.30709 -0.044332484 -43.770594 -0.044332484 -43.770594 -46.730298 136.30709 
277.3 -46.606944 135.51451 -0.045137231 -44.566142 -0.045137231 -44.566142 -46.606944 135.51451 
282.25 -46.48699 134.722 -0.045941976 -45.36169 -0.045941976 -45.36169 -46.48699 134.722 
287.2 -46.370345 133.92955 -0.046746722 -46.157239 -0.046746722 -46.157239 -46.370345 133.92955 
292.15 -46.256918 133.13717 -0.047551471 -46.952788 -0.047551471 -46.952788 -46.256918 133.13717 
297.1 -46.146628 132.34485 -0.048356225 -47.748338 -0.048356225 -47.748338 -46.146628 132.34485 
302.05 -46.039394 131.5526 -0.049160986 -48.543888 -0.049160986 -48.543888 -46.039394 131.5526 
307 -45.935142 130.76041 -0.049965757 -49.339439 -0.049965757 -49.339439 -45.935142 130.76041 
311.95 -45.8338 129.96829 -0.050770538 -50.13499 -0.050770538 -50.13499 -45.8338 129.96829 
316.9 -45.7353 129.17623 -0.051575333 -50.930542 -0.051575333 -50.930542 -45.7353 129.17623 
321.85 -45.639579 128.38424 -0.052380143 -51.726094 -0.052380143 -51.726094 -45.639579 128.38424 
326.8 -45.546575 127.59232 -0.05318497 -52.521647 -0.05318497 -52.521647 -45.546575 127.59232 
331.75 -45.45623 126.80048 -0.053989817 -53.3172 -0.053989817 -53.3172 -45.45623 126.80048 
336.7 -45.368489 126.0087 -0.054794685 -54.112754 -0.054794685 -54.112754 -45.368489 126.0087 
341.65 -45.283299 125.21699 -0.055599576 -54.908308 -0.055599576 -54.908308 -45.283299 125.21699 
346.6 -45.200611 124.42535 -0.056404492 -55.703862 -0.056404492 -55.703862 -45.200611 124.42535 
351.55 -45.120376 123.63379 -0.057209435 -56.499417 -0.057209435 -56.499417 -45.120376 123.63379 
356.5 -45.04255 122.8423 -0.058014407 -57.294973 -0.058014407 -57.294973 -45.04255 122.8423 
361.45 -44.967089 122.05088 -0.05881941 -58.090529 -0.05881941 -58.090529 -44.967089 122.05088 
366.4 -44.893952 121.25954 -0.059624445 -58.886085 -0.059624445 -58.886085 -44.893952 121.25954 
371.35 -44.823099 120.46827 -0.060429515 -59.681642 -0.060429515 -59.681642 -44.823099 120.46827 
376.3 -44.754494 119.67709 -0.061234622 -60.477199 -0.061234622 -60.477199 -44.754494 119.67709 
381.25 -44.6881 118.88598 -0.062039766 -61.272757 -0.062039766 -61.272757 -44.6881 118.88598 
386.2 -44.623884 118.09495 -0.06284495 -62.068315 -0.06284495 -62.068315 -44.623884 118.09495 
391.15 -44.561814 117.304 -0.063650176 -62.863873 -0.063650176 -62.863873 -44.561814 117.304 
396.1 -44.501858 116.51313 -0.064455445 -63.659432 -0.064455445 -63.659432 -44.501858 116.51313 
401.05 -44.443987 115.72234 -0.065260758 -64.454991 -0.065260758 -64.454991 -44.443987 115.72234 
406 -44.388173 114.93164 -0.066066118 -65.250551 -0.066066118 -65.250551 -44.388173 114.93164 
410.95 -44.334389 114.14102 -0.066871526 -66.046111 -0.066871526 -66.046111 -44.334389 114.14102 
415.9 -44.282611 113.35049 -0.067676984 -66.841671 -0.067676984 -66.841671 -44.282611 113.35049 
420.85 -44.232814 112.56004 -0.068482493 -67.637232 -0.068482493 -67.637232 -44.232814 112.56004 
425.8 -44.184975 111.76969 -0.069288054 -68.432793 -0.069288054 -68.432793 -44.184975 111.76969 
430.75 -44.139072 110.97942 -0.070093669 -69.228354 -0.070093669 -69.228354 -44.139072 110.97942 
435.7 -44.095084 110.18925 -0.070899339 -70.023916 -0.070899339 -70.023916 -44.095084 110.18925 
440.65 -44.052993 109.39917 -0.071705066 -70.819478 -0.071705066 -70.819478 -44.052993 109.39917 
445.6 -44.012778 108.60918 -0.072510851 -71.61504 -0.072510851 -71.61504 -44.012778 108.60918 
450.55 -43.974423 107.81929 -0.073316695 -72.410603 -0.073316695 -72.410603 -43.974423 107.81929 
455.5 -43.937911 107.02949 -0.074122599 -73.206165 -0.074122599 -73.206165 -43.937911 107.02949 
460.45 -43.903226 106.2398 -0.074928565 -74.001729 -0.074928565 -74.001729 -43.903226 106.2398 
465.4 -43.870354 105.4502 -0.075734593 -74.797292 -0.075734593 -74.797292 -43.870354 105.4502 
470.35 -43.839279 104.66071 -0.076540685 -75.592856 -0.076540685 -75.592856 -43.839279 104.66071 
475.3 -43.80999 103.87132 -0.077346842 -76.388419 -0.077346842 -76.388419 -43.80999 103.87132 
480.25 -43.782473 103.08203 -0.078153064 -77.183984 -0.078153064 -77.183984 -43.782473 103.08203 
485.2 -43.756718 102.29286 -0.078959352 -77.979548 -0.078959352 -77.979548 -43.756718 102.29286 
490.15 -43.732713 101.50379 -0.079765708 -78.775112 -0.079765708 -78.775112 -43.732713 101.50379 
495.1 -43.710448 100.71484 -0.080572132 -79.570677 -0.080572132 -79.570677 -43.710448 100.71484 
500.05 -43.689915 99.925998 -0.081378625 -80.366242 -0.081378625 -80.366242 -43.689915 99.925998 
505 -43.671104 99.137273 -0.082185187 -81.161807 -0.082185187 -81.161807 -43.671104 99.137273 
509.95 -43.654009 98.348666 -0.08299182 -81.957372 -0.08299182 -81.957372 -43.654009 98.348666 
514.9 -43.638621 97.560179 -0.083798523 -82.752937 -0.083798523 -82.752937 -43.638621 97.560179 
519.85 -43.624935 96.771815 -0.084605297 -83.548503 -0.084605297 -83.548503 -43.624935 96.771815 
524.8 -43.612945 95.983575 -0.085412143 -84.344068 -0.085412143 -84.344068 -43.612945 95.983575 
529.75 -43.602646 95.195464 -0.086219062 -85.139634 -0.086219062 -85.139634 -43.602646 95.195464 
534.7 -43.594034 94.407482 -0.087026053 -85.9352 -0.087026053 -85.9352 -43.594034 94.407482 
539.65 -43.587104 93.619633 -0.087833116 -86.730765 -0.087833116 -86.730765 -43.587104 93.619633 
544.6 -43.581855 92.83192 -0.088640253 -87.526331 -0.088640253 -87.526331 -43.581855 92.83192 
549.55 -43.578283 92.044344 -0.089447463 -88.321897 -0.089447463 -88.321897 -43.578283 92.044344 
554.5 -43.576386 91.256911 -0.090254746 -89.117463 -0.090254746 -89.117463 -43.576386 91.256911 
559.45 -43.576165 90.469621 -0.091062103 -89.913029 -0.091062103 -89.913029 -43.576165 90.469621 
564.4 -43.577618 89.682479 -0.091869534 -90.708595 -0.091869534 -90.708595 -43.577618 89.682479 
569.35 -43.580746 88.895488 -0.092677038 -91.504161 -0.092677038 -91.504161 -43.580746 88.895488 
574.3 -43.585549 88.108652 -0.093484615 -92.299727 -0.093484615 -92.299727 -43.585549 88.108652 
579.25 -43.59203 87.321972 -0.094292265 -93.095293 -0.094292265 -93.095293 -43.59203 87.321972 
584.2 -43.60019 86.535455 -0.095099989 -93.890858 -0.095099989 -93.890858 -43.60019 86.535455 
589.15 -43.610031 85.749102 -0.095907785 -94.686424 -0.095907785 -94.686424 -43.610031 85.749102 
594.1 -43.621559 84.962919 -0.096715653 -95.48199 -0.096715653 -95.48199 -43.621559 84.962919 
599.05 -43.634776 84.176909 -0.097523594 -96.277555 -0.097523594 -96.277555 -43.634776 84.176909 
604 -43.649688 83.391076 -0.098331606 -97.073121 -0.098331606 -97.073121 -43.649688 83.391076 
608.95 -43.6663 82.605426 -0.09913969 -97.868686 -0.09913969 -97.868686 -43.6663 82.605426 
613.9 -43.684618 81.819961 -0.099947844 -98.664251 -0.099947844 -98.664251 -43.684618 81.819961 
618.85 -43.70465 81.034688 -0.10075607 -99.459816 -0.10075607 -99.459816 -43.70465 81.034688 
623.8 -43.726402 80.249611 -0.10156436 -100.25538 -0.10156436 -100.25538 -43.726402 80.249611 
628.75 -43.749883 79.464735 -0.10237272 -101.05095 -0.10237272 -101.05095 -43.749883 79.464735 
633.7 -43.775103 78.680066 -0.10318115 -101.84651 -0.10318115 -101.84651 -43.775103 78.680066 
638.65 -43.80207 77.895609 -0.10398965 -102.64207 -0.10398965 -102.64207 -43.80207 77.895609 
643.6 -43.830796 77.11137 -0.10479821 -103.43764 -0.10479821 -103.43764 -43.830796 77.11137 
648.55 -43.861291 76.327355 -0.10560684 -104.2332 -0.10560684 -104.2332 -43.861291 76.327355 
653.5 -43.893569 75.54357 -0.10641554 -105.02877 -0.10641554 -105.02877 -43.893569 75.54357 
658.45 -43.927641 74.760022 -0.10722429 -105.82433 -0.10722429 -105.82433 -43.927641 74.760022 
663.4 -43.963522 73.976718 -0.10803311 -106.61989 -0.10803311 -106.61989 -43.963522 73.976718 
668.35 -44.001226 73.193664 -0.10884199 -107.41546 -0.10884199 -107.41546 -44.001226 73.193664 
673.3 -44.040769 72.410869 -0.10965093 -108.21102 -0.10965093 -108.21102 -44.040769 72.410869 
678.25 -44.082167 71.628339 -0.11045993 -109.00658 -0.11045993 -109.00658 -44.082167 71.628339 
683.2 -44.125438 70.846084 -0.11126899 -109.80214 -0.11126899 -109.80214 -44.125438 70.846084 
688.15 -44.1706 70.064112 -0.1120781 -110.5977 -0.1120781 -110.5977 -44.1706 70.064112 
693.1 -44.217672 69.282431 -0.11288727 -111.39327 -0.11288727 -111.39327 -44.217672 69.282431 
698.05 -44.266676 68.50105 -0.11369649 -112.18883 -0.11369649 -112.18883 -44.266676 68.50105 
703 -44.317631 67.719981 -0.11450576 -112.98439 -0.11450576 -112.98439 -44.317631 67.719981 
707.95 -44.370562 66.939232 -0.11531509 -113.77995 -0.11531509 -113.77995 -44.370562 66.939232 
712.9 -44.425491 66.158814 -0.11612446 -114.57551 -0.11612446 -114.57551 -44.425491 66.158814 
717.85 -44.482445 65.37874 -0.11693388 -115.37107 -0.11693388 -115.37107 -44.482445 65.37874 
722.8 -44.541449 64.599019 -0.11774335 -116.16663 -0.11774335 -116.16663 -44.541449 64.599019 
727.75 -44.60253 63.819666 -0.11855286 -116.96219 -0.11855286 -116.96219 -44.60253 63.819666 
732.7 -44.665719 63.040692 -0.11936242 -117.75775 -0.11936242 -117.75775 -44.665719 63.040692 
737.65 -44.731044 62.262112 -0.12017202 -118.5533 -0.12017202 -118.5533 -44.731044 62.262112 
742.6 -44.798539 61.48394 -0.12098165 -119.34886 -0.12098165 -119.34886 -44.798539 61.48394 
747.55 -44.868237 60.70619 -0.12179133 -120.14442 -0.12179133 -120.14442 -44.868237 60.70619 
752.5 -44.940173 59.92888 -0.12260104 -120.93998 -0.12260104 -120.93998 -44.940173 59.92888 
757.45 -45.014383 59.152025 -0.12341078 -121.73553 -0.12341078 -121.73553 -45.014383 59.152025 
762.4 -45.090907 58.375644 -0.12422056 -122.53109 -0.12422056 -122.53109 -45.090907 58.375644 
767.35 -45.169786 57.599755 -0.12503037 -123.32664 -0.12503037 -123.32664 -45.169786 57.599755 
772.3 -45.251061 56.824377 -0.12584021 -124.1222 -0.12584021 -124.1222 -45.251061 56.824377 
777.25 -45.334778 56.049533 -0.12665007 -124.91775 -0.12665007 -124.91775 -45.334778 56.049533 
782.2 -45.420984 55.275244 -0.12745996 -125.71331 -0.12745996 -125.71331 -45.420984 55.275244 
787.15 -45.509728 54.501533 -0.12826987 -126.50886 -0.12826987 -126.50886 -45.509728 54.501533 
792.1 -45.601061 53.728426 -0.12907981 -127.30442 -0.12907981 -127.30442 -45.601061 53.728426 
797.05 -45.695039 52.955948 -0.12988976 -128.09997 -0.12988976 -128.09997 -45.695039 52.955948 
802 -45.791719 52.184128 -0.13069973 -128.89552 -0.13069973 -128.89552 -45.791719 52.184128 
806.95 -45.89116 51.412996 -0.13150972 -129.69107 -0.13150972 -129.69107 -45.89116 51.412996 
811.9 -45.993427 50.642582 -0.13231972 -130.48662 -0.13231972 -130.48662 -45.993427 50.642582 
816.85 -46.098585 49.872922 -0.13312973 -131.28218 -0.13312973 -131.28218 -46.098585 49.872922 
821.8 -46.206706 49.10405 -0.13393975 -132.07773 -0.13393975 -132.07773 -46.206706 49.10405 
826.75 -46.317863 48.336006 -0.13474978 -132.87328 -0.13474978 -132.87328 -46.317863 48.336006 
831.7 -46.432134 47.56883 -0.13555981 -133.66883 -0.13555981 -133.66883 -46.432134 47.56883 
836.65 -46.549601 46.802566 -0.13636985 -134.46437 -0.13636985 -134.46437 -46.549601 46.802566 
841.6 -46.670352 46.037261 -0.13717988 -135.25992 -0.13717988 -135.25992 -46.670352 46.037261 
846.55 -46.794478 45.272966 -0.13798992 -136.05547 -0.13798992 -136.05547 -46.794478 45.272966 
851.5 -46.922076 44.509734 -0.13879996 -136.85102 -0.13879996 -136.85102 -46.922076 44.509734 
856.45 -47.053249 43.747624 -0.13960999 -137.64657 -0.13960999 -137.64657 -47.053249 43.747624 
861.4 -47.188106 42.986698 -0.14042001 -138.44211 -0.14042001 -138.44211 -47.188106 42.986698 
866.35 -47.326762 42.227024 -0.14123002 -139.23766 -0.14123002 -139.23766 -47.326762 42.227024 
871.3 -47.469338 41.468674 -0.14204003 -140.03321 -0.14204003 -140.03321 -47.469338 41.468674 
876.25 -47.615966 40.711727 -0.14285002 -140.82875 -0.14285002 -140.82875 -47.615966 40.711727 
881.2 -47.766783 39.956268 -0.14365999 -141.6243 -0.14365999 -141.6243 -47.766783 39.956268 
886.15 -47.921936 39.20239 -0.14446995 -142.41984 -0.14446995 -142.41984 -47.921936 39.20239 
891.1 -48.081582 38.450193 -0.1452799 -143.21538 -0.1452799 -143.21538 -48.081582 38.450193 
896.05 -48.245887 37.699785 -0.14608982 -144.01093 -0.14608982 -144.01093 -48.245887 37.699785 
901 -48.41503 36.951287 -0.14689971 -144.80647 -0.14689971 -144.80647 -48.41503 36.951287 
905.95 -48.589202 36.204827 -0.14770959 -145.60201 -0.14770959 -145.60201 -48.589202 36.204827 
910.9 -48.768607 35.460549 -0.14851944 -146.39756 -0.14851944 -146.39756 -48.768607 35.460549 
915.85 -48.953464 34.718607 -0.14932926 -147.1931 -0.14932926 -147.1931 -48.953464 34.718607 
920.8 -49.144008 33.979175 -0.15013904 -147.98864 -0.15013904 -147.98864 -49.144008 33.979175 
925.75 -49.340493 33.242439 -0.1509488 -148.78418 -0.1509488 -148.78418 -49.340493 33.242439 
930.7 -49.543192 32.50861 -0.15175853 -149.57972 -0.15175853 -149.57972 -49.543192 32.50861 
935.65 -49.7524 31.777917 -0.15256822 -150.37526 -0.15256822 -150.37526 -49.7524 31.777917 
940.6 -49.968435 31.050618 -0.15337787 -151.1708 -0.15337787 -151.1708 -49.968435 31.050618 
945.55 -50.191643 30.326997 -0.15418748 -151.96634 -0.15418748 -151.96634 -50.191643 30.326997 
950.5 -50.4224 29.607373 -0.15499705 -152.76188 -0.15499705 -152.76188 -50.4224 29.607373 
955.45 -50.661114 28.892102 -0.15580658 -153.55742 -0.15580658 -153.55742 -50.661114 28.892102 
960.4 -50.908233 28.181586 -0.15661607 -154.35295 -0.15661607 -154.35295 -50.908233 28.181586 
965.35 -51.164244 27.476275 -0.15742551 -155.14849 -0.15742551 -155.14849 -51.164244 27.476275 
970.3 -51.429683 26.776683 -0.15823491 -155.94403 -0.15823491 -155.94403 -51.429683 26.776683 
975.25 -51.705139 26.083389 -0.15904425 -156.73956 -0.15904425 -156.73956 -51.705139 26.083389 
980.2 -51.991264 25.397057 -0.15985355 -157.5351 -0.15985355 -157.5351 -51.991264 25.397057 
985.15 -52.288778 24.718446 -0.1606628 -158.33064 -0.1606628 -158.33064 -52.288778 24.718446 
990.1 -52.598481 24.048433 -0.16147199 -159.12617 -0.16147199 -159.12617 -52.598481 24.048433 
995.05 -52.921266 23.388029 -0.16228113 -159.92171 -0.16228113 -159.92171 -52.921266 23.388029 
1000 -53.258134 22.738415 -0.16309021 -160.71724 -0.16309021 -160.71724 -53.258134 22.738415 
