!Keysight Technologies,N5242A,MY53222371,A.10.65.16
!Date: Thursday, September 19, 2024 14:37:14
!Correction: S22(Full 2 Port(1,2)) 
!S1P File: Measurement: S22:
# Hz S  dB   R 50
10000000 0.0039342111 -4.3983898
14950000 -0.0065228362 -6.4479294
19900000 -0.01962281 -8.7070446
24850000 -0.011935299 -10.798625
29800000 -0.024295392 -12.871724
34750000 -0.022500472 -15.028504
39700000 -0.028919008 -17.136629
44650000 -0.031625003 -19.22867
49600000 -0.040658921 -21.326864
54550000 -0.042121165 -23.388252
59500000 -0.041210864 -25.573874
64450000 -0.049655266 -27.606392
69400000 -0.055025049 -29.700218
74350000 -0.057068758 -31.758543
79300000 -0.06168104 -33.844128
84250000 -0.066106133 -35.917526
89200000 -0.069796599 -37.989944
94150000 -0.073506638 -40.056782
99100000 -0.077715501 -42.103935
104050000 -0.079897597 -44.151627
109000000 -0.079858258 -46.17609
113950000 -0.084482387 -48.216293
118900000 -0.082865052 -50.197414
123850000 -0.090286814 -52.26429
128800000 -0.0901746 -54.249859
133750000 -0.096840434 -56.20018
138700000 -0.096867718 -58.213615
143650000 -0.10470941 -60.207661
148600000 -0.10197011 -62.156559
153550000 -0.11968003 -64.142891
158500000 -0.1182363 -66.119736
163450000 -0.11632652 -68.091995
168400000 -0.11776694 -70.019249
173350000 -0.12427659 -71.941223
178300000 -0.12421522 -73.86628
183250000 -0.12744708 -75.784599
188200000 -0.12525593 -77.690483
193150000 -0.13739908 -79.607216
198100000 -0.1283337 -81.5149
203050000 -0.13305055 -83.377098
208000000 -0.13323516 -85.28289
212950000 -0.12933809 -87.102196
217900000 -0.13889718 -88.97673
222850000 -0.13438052 -90.866264
227800000 -0.1436251 -92.760483
232750000 -0.14065604 -94.54583
237700000 -0.14601703 -96.40506
242650000 -0.1498661 -98.265907
247600000 -0.14883702 -100.00744
252550000 -0.15802184 -101.81944
257500000 -0.16483578 -103.59077
262450000 -0.15422769 -105.37741
267400000 -0.1602249 -107.13538
272350000 -0.17029588 -108.80079
277300000 -0.17580278 -110.62003
282250000 -0.16563033 -112.35514
287200000 -0.17244455 -114.08228
292150000 -0.17580651 -115.86953
297100000 -0.17009917 -117.55331
302050000 -0.17419492 -119.25443
307000000 -0.17623186 -120.99321
311950000 -0.18217447 -122.70409
316900000 -0.19413395 -124.31023
321850000 -0.18965957 -126.03489
326800000 -0.1951409 -127.73361
331750000 -0.19137806 -129.38239
336700000 -0.18867688 -131.01144
341650000 -0.18820415 -132.74213
346600000 -0.20093809 -134.35991
351550000 -0.19745439 -135.96187
356500000 -0.19903347 -137.68835
361450000 -0.19659351 -139.26715
366400000 -0.19470328 -140.87634
371350000 -0.19989638 -142.65221
376300000 -0.19661686 -144.18907
381250000 -0.20049614 -145.74698
386200000 -0.20211606 -147.3432
391150000 -0.19900814 -149.00966
396100000 -0.20014423 -150.59904
401050000 -0.19184504 -152.24034
406000000 -0.20098306 -153.73685
410950000 -0.19788976 -155.37204
415900000 -0.20010886 -156.89308
420850000 -0.20983325 -158.49911
425800000 -0.19984101 -160.07097
430750000 -0.19963709 -161.5975
435700000 -0.19195686 -163.13602
440650000 -0.20039776 -164.7345
445600000 -0.20183542 -166.28113
450550000 -0.20865282 -167.77635
455500000 -0.20357248 -169.39178
460450000 -0.20300956 -170.91859
465400000 -0.19213676 -172.43884
470350000 -0.20746477 -174.01074
475300000 -0.20706113 -175.53098
480250000 -0.20317271 -177.10031
485200000 -0.20735723 -178.52997
490150000 -0.19822088 179.87108
495100000 -0.20833421 178.34412
500050000 -0.21424216 176.83028
505000000 -0.20434597 175.29164
509950000 -0.21133637 173.83131
514900000 -0.21442482 172.29323
519850000 -0.2055032 170.73914
524800000 -0.21112612 169.22047
529750000 -0.21575378 167.72824
534700000 -0.2101589 166.22284
539650000 -0.22333597 164.69783
544600000 -0.21364318 163.20435
549550000 -0.20658 161.71899
554500000 -0.21473703 160.1983
559450000 -0.21866246 158.6821
564400000 -0.21400152 157.23647
569350000 -0.21981099 155.6859
574300000 -0.21670708 154.17735
579250000 -0.22570501 152.70485
584200000 -0.22578391 151.18071
589150000 -0.21383722 149.70221
594100000 -0.22678976 148.1563
599050000 -0.21950395 146.62773
604000000 -0.22188489 145.0898
608950000 -0.21472466 143.64194
613900000 -0.2236364 142.10925
618850000 -0.23221397 140.61598
623800000 -0.2244166 139.07716
628750000 -0.22866745 137.60745
633700000 -0.23085502 136.06126
638650000 -0.23280077 134.51718
643600000 -0.23071985 132.97318
648550000 -0.23424856 131.4424
653500000 -0.24135351 130.01921
658450000 -0.23295936 128.45276
663400000 -0.22969317 126.9759
668350000 -0.24618104 125.40836
673300000 -0.24286999 123.87344
678250000 -0.24129033 122.36294
683200000 -0.23988079 120.82404
688150000 -0.24276827 119.37496
693100000 -0.23723385 117.80556
698050000 -0.24990851 116.24699
703000000 -0.25040573 114.71944
707950000 -0.25089231 113.1674
712900000 -0.25013638 111.64622
717850000 -0.2476528 110.0997
722800000 -0.24876888 108.54084
727750000 -0.24710469 106.94846
732700000 -0.24801508 105.3793
737650000 -0.25892887 103.71617
742600000 -0.2515929 102.21237
747550000 -0.24845466 100.59921
752500000 -0.26010004 99.060738
757450000 -0.27762064 97.462494
762400000 -0.25855142 95.851082
767350000 -0.26559544 94.240761
772300000 -0.25571623 92.651192
777250000 -0.26695731 90.971046
782200000 -0.27686259 89.43232
787150000 -0.27451146 87.790512
792100000 -0.27320394 86.117455
797050000 -0.28102082 84.556763
802000000 -0.2847425 82.92395
806950000 -0.27657568 81.296417
811900000 -0.28723642 79.650238
816850000 -0.29349738 77.983765
821800000 -0.30088252 76.385765
826750000 -0.29822004 74.683434
831700000 -0.29212454 73.047905
836650000 -0.29681912 71.371712
841600000 -0.29934135 69.655052
846550000 -0.30769065 67.977097
851500000 -0.31287998 66.29306
856450000 -0.32073087 64.637344
861400000 -0.32637444 62.905205
866350000 -0.33034691 61.174465
871300000 -0.33271301 59.400127
876250000 -0.33731377 57.662643
881200000 -0.34021121 55.922901
886150000 -0.34706137 54.195663
891100000 -0.35419914 52.341156
896050000 -0.35556188 50.571602
901000000 -0.35549197 48.840042
905950000 -0.36693224 47.080997
910900000 -0.37030816 45.201782
915850000 -0.37073433 43.488426
920800000 -0.37217239 41.631874
925750000 -0.37959388 39.822956
930700000 -0.38954577 37.948994
935650000 -0.39156583 36.118961
940600000 -0.39748451 34.24369
945550000 -0.40701362 32.393742
950500000 -0.40812993 30.563017
955450000 -0.40775585 28.679678
960400000 -0.41657686 26.785383
965350000 -0.42066661 24.856274
970300000 -0.42699409 22.947855
975250000 -0.43413025 21.061689
980200000 -0.43370035 19.027533
985150000 -0.45101684 17.124252
990100000 -0.43757141 15.228279
995050000 -0.4550468 13.244657
1000000000 -0.45529944 11.313046
